T2338 000:131.013   SEGGER J-Link V7.98c Log File
T2338 000:131.241   DLL Compiled: Aug  7 2024 15:37:06
T2338 000:131.252   Logging started @ 2024-11-02 17:23
T2338 000:131.261   Process: C:\Users\krask\AppData\Local\Keil_v5\UV4\UV4.exe
T2338 000:131.273 - 131.270ms
T2338 000:131.291 JLINK_SetWarnOutHandler(...)
T2338 000:131.300 - 0.011ms
T2338 000:131.311 JLINK_OpenEx(...)
T2338 000:134.440   Firmware: J-Link OpenSDA compiled May 27 2019 10:59:53
T2338 000:135.260   Firmware: J-Link OpenSDA compiled May 27 2019 10:59:53
T2338 000:150.892   Hardware: V1.00
T2338 000:150.958   S/N: 621000000
T2338 000:150.985   OEM: SEGGER
T2338 000:151.013   Feature(s): None
T2338 000:151.370   Bootloader: (Could not read)
T2338 000:152.140   TELNET listener socket opened on port 19021
T2338 000:152.496   WEBSRV WEBSRV_Init(): Starting webserver thread(s)
T2338 000:152.848   WEBSRV Webserver running on local port 19080
T2338 000:153.085   Looking for J-Link GUI Server exe at: C:\Users\krask\AppData\Local\Keil_v5\ARM\Segger\JLinkGUIServer.exe
T2338 000:153.249   Looking for J-Link GUI Server exe at: C:\Program Files (x86)\SEGGER\JLink_V810c\JLinkGUIServer.exe
T2338 000:153.345   Forking J-Link GUI Server: C:\Program Files (x86)\SEGGER\JLink_V810c\JLinkGUIServer.exe
T2338 000:156.847   J-Link GUI Server info: "J-Link GUI server V8.10c "
T2338 000:159.943 - 28.617ms returns "O.K."
T2338 000:160.006 JLINK_GetEmuCaps()
T2338 000:160.043 - 0.028ms returns 0x986A5A33
T2338 000:160.069 JLINK_TIF_GetAvailable(...)
T2338 000:160.324 - 0.254ms
T2338 000:160.357 JLINK_SetErrorOutHandler(...)
T2338 000:160.379 - 0.021ms
T2338 000:160.433 JLINK_ExecCommand("ProjectFile = "C:\Users\krask\Documents\Laby\PWM_LAB\LED_PCM\demo_pwm\JLinkSettings.ini"", ...). 
T2338 000:199.166 - 38.734ms returns 0x00
T2338 000:202.018 JLINK_ExecCommand("Device = MKL05Z32xxx4", ...). 
T2338 000:202.338   Add. flash bank: Turbo mode enabled, but no RAMCode available. 
T2338 000:206.985   Device "MKL05Z32XXX4" selected.
T2338 000:207.450 - 5.389ms returns 0x00
T2338 000:207.479 JLINK_ExecCommand("DisableConnectionTimeout", ...). 
T2338 000:207.496   ERROR: Unknown command
T2338 000:207.510 - 0.016ms returns 0x01
T2338 000:207.523 JLINK_GetHardwareVersion()
T2338 000:207.545 - 0.009ms returns 10000
T2338 000:207.557 JLINK_GetDLLVersion()
T2338 000:207.566 - 0.009ms returns 79803
T2338 000:207.577 JLINK_GetOEMString(...)
T2338 000:207.589 JLINK_GetFirmwareString(...)
T2338 000:207.598 - 0.009ms
T2338 000:218.863 JLINK_GetDLLVersion()
T2338 000:218.903 - 0.039ms returns 79803
T2338 000:218.918 JLINK_GetCompileDateTime()
T2338 000:218.929 - 0.011ms
T2338 000:222.834 JLINK_GetFirmwareString(...)
T2338 000:222.891 - 0.058ms
T2338 000:228.300 JLINK_GetHardwareVersion()
T2338 000:228.336 - 0.035ms returns 10000
T2338 000:233.979 JLINK_GetSN()
T2338 000:234.105 - 0.124ms returns 621000000
T2338 000:241.032 JLINK_GetOEMString(...)
T2338 000:246.754 JLINK_TIF_Select(JLINKARM_TIF_SWD)
T2338 000:247.508 - 0.753ms returns 0x00
T2338 000:247.552 JLINK_HasError()
T2338 000:247.584 JLINK_SetSpeed(5000)
T2338 000:247.697 - 0.116ms
T2338 000:247.729 JLINK_GetId()
T2338 000:253.476   ConfigTargetSettings() start
T2338 000:253.534    J-Link Script File: Executing ConfigTargetSettings()
T2338 000:259.059   ConfigTargetSettings() end - Took 58us
T2338 000:264.052   InitTarget() start
T2338 000:264.119    J-Link Script File: Executing InitTarget()
T2338 000:270.157   InitTarget()
T2338 000:275.519   SWD selected. Executing JTAG -> SWD switching sequence.
T2338 000:339.709   InitTarget() end - Took 70.4ms
T2338 000:344.726   Found SW-DP with ID 0x0BC11477
T2338 000:349.236   Old FW that does not support reading DPIDR via DAP jobs
T2338 000:358.301   DPv0 detected
T2338 000:362.169   CoreSight SoC-400 or earlier
T2338 000:367.654   AP map detection skipped. Manually configured AP map found.
T2338 000:372.695   AP[0]: AHB-AP (IDR: Not set)
T2338 000:376.387   AP[1]: MEM-AP (IDR: Not set)
T2338 000:387.046   AP[0]: Core found
T2338 000:392.514   AP[0]: AHB-AP ROM base: 0xF0002000
T2338 000:399.067   CPUID register: 0x410CC600. Implementer code: 0x41 (ARM)
T2338 000:403.524   Found Cortex-M0 r0p0, Little endian.
T2338 000:403.982   -- Max. mem block: 0x00001140
T2338 000:404.771   CPU_ReadMem(4 bytes @ 0xE000EDF0)
T2338 000:405.254   CPU_WriteMem(4 bytes @ 0xE000EDF0)
T2338 000:405.755   CPU_ReadMem(4 bytes @ 0xE0002000)
T2338 000:410.221   FPUnit: 2 code (BP) slots and 0 literal slots
T2338 000:410.281   CPU_ReadMem(4 bytes @ 0xE000EDFC)
T2338 000:410.839   CPU_WriteMem(4 bytes @ 0xE000EDFC)
T2338 000:411.379   CPU_ReadMem(4 bytes @ 0xE0001000)
T2338 000:411.885   CPU_WriteMem(4 bytes @ 0xE0001000)
T2338 000:416.543   CoreSight components:
T2338 000:420.906   ROMTbl[0] @ F0002000
T2338 000:420.965   CPU_ReadMem(64 bytes @ 0xF0002000)
T2338 000:422.253   CPU_ReadMem(32 bytes @ 0xF0000FE0)
T2338 000:426.697   [0][0]: F0000000 CID B105900D PID 000BB932 MTB-M0+
T2338 000:426.743   CPU_ReadMem(32 bytes @ 0xF0001FE0)
T2338 000:431.019   [0][1]: F0001000 CID B105900D PID 0008E000 MTBDWT
T2338 000:431.068   CPU_ReadMem(32 bytes @ 0xE00FFFE0)
T2338 000:436.539   [0][2]: E00FF000 CID B105100D PID 000BB4C0 ROM Table
T2338 000:440.555   ROMTbl[1] @ E00FF000
T2338 000:440.608   CPU_ReadMem(64 bytes @ 0xE00FF000)
T2338 000:441.864   CPU_ReadMem(32 bytes @ 0xE000EFE0)
T2338 000:447.192   [1][0]: E000E000 CID B105E00D PID 000BB008 SCS
T2338 000:447.272   CPU_ReadMem(32 bytes @ 0xE0001FE0)
T2338 000:452.766   [1][1]: E0001000 CID B105E00D PID 000BB00A DWT
T2338 000:452.870   CPU_ReadMem(32 bytes @ 0xE0002FE0)
T2338 000:457.747   [1][2]: E0002000 CID B105E00D PID 000BB00B FPB
T2338 000:458.534 - 210.802ms returns 0x0BC11477
T2338 000:458.650 JLINK_GetDLLVersion()
T2338 000:458.669 - 0.018ms returns 79803
T2338 000:458.681 JLINK_CORE_GetFound()
T2338 000:458.691 - 0.009ms returns 0x60000FF
T2338 000:458.702 JLINK_GetDebugInfo(0x100 = JLINKARM_ROM_TABLE_ADDR_INDEX)
T2338 000:458.712   Value=0xF0002000
T2338 000:458.725 - 0.023ms returns 0
T2338 000:462.363 JLINK_GetDebugInfo(0x100 = JLINKARM_ROM_TABLE_ADDR_INDEX)
T2338 000:462.407   Value=0xF0002000
T2338 000:462.423 - 0.061ms returns 0
T2338 000:462.438 JLINK_GetDebugInfo(0x101 = JLINKARM_DEBUG_INFO_ETM_ADDR_INDEX)
T2338 000:462.448   Value=0x00000000
T2338 000:462.463 - 0.025ms returns 0
T2338 000:462.477 JLINK_ReadMemEx(0xE0041FF0, 0x10 Bytes, Flags = 0x02000004)
T2338 000:462.521   CPU_ReadMem(16 bytes @ 0xE0041FF0)
T2338 000:463.160   Data:  00 00 00 00 00 00 00 00 00 00 00 00 00 00 00 00
T2338 000:463.198 - 0.720ms returns 16 (0x10)
T2338 000:463.222 JLINK_GetDebugInfo(0x102 = JLINKARM_DEBUG_INFO_MTB_ADDR_INDEX)
T2338 000:463.239   Value=0xF0000000
T2338 000:463.259 - 0.037ms returns 0
T2338 000:463.275 JLINK_CORE_GetFound()
T2338 000:463.289 - 0.013ms returns 0x60000FF
T2338 000:463.306 JLINK_GetDebugInfo(0x103 = JLINKARM_DEBUG_INFO_TPIU_ADDR_INDEX)
T2338 000:463.319   Value=0x00000000
T2338 000:463.338 - 0.033ms returns 0
T2338 000:463.354 JLINK_GetDebugInfo(0x104 = JLINKARM_DEBUG_INFO_ITM_ADDR_INDEX)
T2338 000:463.368   Value=0xE0000000
T2338 000:463.394 - 0.040ms returns 0
T2338 000:463.407 JLINK_GetDebugInfo(0x105 = JLINKARM_DEBUG_INFO_DWT_ADDR_INDEX)
T2338 000:463.416   Value=0xE0001000
T2338 000:463.429 - 0.022ms returns 0
T2338 000:463.439 JLINK_GetDebugInfo(0x106 = JLINKARM_DEBUG_INFO_FPB_ADDR_INDEX)
T2338 000:463.448   Value=0xE0002000
T2338 000:463.460 - 0.021ms returns 0
T2338 000:463.471 JLINK_GetDebugInfo(0x107 = JLINKARM_DEBUG_INFO_NVIC_ADDR_INDEX)
T2338 000:463.480   Value=0xE000E000
T2338 000:463.494 - 0.023ms returns 0
T2338 000:463.505 JLINK_GetDebugInfo(0x10C = JLINKARM_DEBUG_INFO_DBG_ADDR_INDEX)
T2338 000:463.514   Value=0xE000EDF0
T2338 000:463.526 - 0.021ms returns 0
T2338 000:463.537 JLINK_GetDebugInfo(0x01 = Unknown)
T2338 000:463.545   Value=0x00000000
T2338 000:463.558 - 0.021ms returns 0
T2338 000:463.569 JLINK_ReadMemU32(0xE000ED00, 0x1 Items)
T2338 000:463.587   CPU_ReadMem(4 bytes @ 0xE000ED00)
T2338 000:464.118   Data:  00 C6 0C 41
T2338 000:464.152   Debug reg: CPUID
T2338 000:464.166 - 0.596ms returns 1 (0x1)
T2338 000:464.180 JLINK_GetDebugInfo(0x10F = JLINKARM_DEBUG_INFO_HAS_CORTEX_M_SECURITY_EXT_INDEX)
T2338 000:464.190   Value=0x00000000
T2338 000:464.203 - 0.022ms returns 0
T2338 000:464.214 JLINK_HasError()
T2338 000:464.226 JLINK_SetResetType(JLINKARM_CM3_RESET_TYPE_NORMAL)
T2338 000:464.235 - 0.009ms returns JLINKARM_CM3_RESET_TYPE_NORMAL
T2338 000:464.246 JLINK_Reset()
T2338 000:464.270   CPU is running
T2338 000:464.285   CPU_WriteMem(4 bytes @ 0xE000EDF0)
T2338 000:464.824   CPU is running
T2338 000:464.848   CPU_WriteMem(4 bytes @ 0xE000EDFC)
T2338 000:471.009   Reset: Halt core after reset via DEMCR.VC_CORERESET.
T2338 000:476.317   Reset: Reset device via AIRCR.SYSRESETREQ.
T2338 000:476.372   CPU is running
T2338 000:476.398   CPU_WriteMem(4 bytes @ 0xE000ED0C)
T2338 000:529.521   CPU_ReadMem(4 bytes @ 0xE000EDF0)
T2338 000:530.153   CPU_ReadMem(4 bytes @ 0xE000EDF0)
T2338 000:535.833   CPU_WriteMem(4 bytes @ 0xE000EDFC)
T2338 000:541.492   CPU_ReadMem(4 bytes @ 0xE000EDF0)
T2338 000:547.102   CPU_WriteMem(4 bytes @ 0xE0002000)
T2338 000:547.814   CPU_ReadMem(4 bytes @ 0xE000EDFC)
T2338 000:548.359   CPU_ReadMem(4 bytes @ 0xE0001000)
T2338 000:548.881   CPU_WriteMem(4 bytes @ 0xE0001000)
T2338 000:549.435 - 85.188ms
T2338 000:549.498 JLINK_Halt()
T2338 000:549.523 - 0.023ms returns 0x00
T2338 000:549.543 JLINK_ReadMemU32(0xE000EDF0, 0x1 Items)
T2338 000:549.574   CPU_ReadMem(4 bytes @ 0xE000EDF0)
T2338 000:550.081   Data:  03 00 03 00
T2338 000:550.102   Debug reg: DHCSR
T2338 000:550.115 - 0.572ms returns 1 (0x1)
T2338 000:550.136 JLINK_WriteU32_64(0xE000EDF0, 0xA05F0003)
T2338 000:550.156   Debug reg: DHCSR
T2338 000:550.859   CPU_WriteMem(4 bytes @ 0xE000EDF0)
T2338 000:551.480 - 1.345ms returns 0 (0x00000000)
T2338 000:551.521 JLINK_WriteU32_64(0xE000EDFC, 0x01000000)
T2338 000:551.538   Debug reg: DEMCR
T2338 000:551.570   CPU_WriteMem(4 bytes @ 0xE000EDFC)
T2338 000:552.092 - 0.570ms returns 0 (0x00000000)
T2338 000:567.737 JLINK_GetHWStatus(...)
T2338 000:568.127 - 0.401ms returns 0
T2338 000:577.283 JLINK_GetNumBPUnits(Type = 0xFFFFFF00)
T2338 000:577.316 - 0.032ms returns 0x02
T2338 000:577.325 JLINK_GetNumBPUnits(Type = 0xF0)
T2338 000:577.333 - 0.007ms returns 0x2000
T2338 000:577.342 JLINK_GetNumWPUnits()
T2338 000:577.350 - 0.007ms returns 2
T2338 000:586.811 JLINK_GetSpeed()
T2338 000:586.846 - 0.034ms returns 1429
T2338 000:592.393 JLINK_ReadMemU32(0xE000E004, 0x1 Items)
T2338 000:592.447   CPU_ReadMem(4 bytes @ 0xE000E004)
T2338 000:593.036   Data:  00 00 00 00
T2338 000:593.066 - 0.673ms returns 1 (0x1)
T2338 000:593.085 JLINK_Halt()
T2338 000:593.095 - 0.010ms returns 0x00
T2338 000:593.106 JLINK_IsHalted()
T2338 000:593.116 - 0.010ms returns TRUE
T2338 000:598.295 JLINK_WriteMem(0x1FFFFC00, 0x5D0 Bytes, ...)
T2338 000:598.312   Data:  00 BE 0A E0 0D 78 2D 06 68 40 08 24 40 00 00 D3 ...
T2338 000:599.052   CPU_WriteMem(1488 bytes @ 0x1FFFFC00)
T2338 000:615.631 - 17.335ms returns 0x5D0
T2338 000:615.766 JLINK_HasError()
T2338 000:615.797 JLINK_WriteReg(R0, 0x00000000)
T2338 000:615.812 - 0.024ms returns 0
T2338 000:615.823 JLINK_WriteReg(R1, 0x00B71B00)
T2338 000:615.833 - 0.010ms returns 0
T2338 000:615.844 JLINK_WriteReg(R2, 0x00000001)
T2338 000:615.853 - 0.009ms returns 0
T2338 000:615.864 JLINK_WriteReg(R3, 0x00000000)
T2338 000:615.873 - 0.009ms returns 0
T2338 000:615.883 JLINK_WriteReg(R4, 0x00000000)
T2338 000:615.892 - 0.009ms returns 0
T2338 000:615.903 JLINK_WriteReg(R5, 0x00000000)
T2338 000:615.912 - 0.009ms returns 0
T2338 000:615.922 JLINK_WriteReg(R6, 0x00000000)
T2338 000:615.931 - 0.009ms returns 0
T2338 000:615.942 JLINK_WriteReg(R7, 0x00000000)
T2338 000:615.951 - 0.009ms returns 0
T2338 000:615.964 JLINK_WriteReg(R8, 0x00000000)
T2338 000:615.973 - 0.011ms returns 0
T2338 000:615.984 JLINK_WriteReg(R9, 0x200001C8)
T2338 000:615.993 - 0.009ms returns 0
T2338 000:616.003 JLINK_WriteReg(R10, 0x00000000)
T2338 000:616.017 - 0.013ms returns 0
T2338 000:616.031 JLINK_WriteReg(R11, 0x00000000)
T2338 000:616.040 - 0.009ms returns 0
T2338 000:616.051 JLINK_WriteReg(R12, 0x00000000)
T2338 000:616.060 - 0.009ms returns 0
T2338 000:616.070 JLINK_WriteReg(R13 (SP), 0x20000C00)
T2338 000:616.080 - 0.009ms returns 0
T2338 000:616.091 JLINK_WriteReg(R14, 0x1FFFFC01)
T2338 000:616.100 - 0.009ms returns 0
T2338 000:616.113 JLINK_WriteReg(R15 (PC), 0x1FFFFC20)
T2338 000:616.123 - 0.012ms returns 0
T2338 000:616.133 JLINK_WriteReg(XPSR, 0x01000000)
T2338 000:616.142 - 0.009ms returns 0
T2338 000:616.153 JLINK_WriteReg(MSP, 0x20000C00)
T2338 000:616.162 - 0.009ms returns 0
T2338 000:616.173 JLINK_WriteReg(PSP, 0x20000C00)
T2338 000:616.181 - 0.008ms returns 0
T2338 000:616.192 JLINK_WriteReg(CFBP, 0x00000000)
T2338 000:616.201 - 0.008ms returns 0
T2338 000:616.212 JLINK_SetBPEx(Addr = 0x1FFFFC00, Type = 0xFFFFFFF2)
T2338 000:616.223 - 0.011ms returns 0x00000001
T2338 000:616.234 JLINK_Go()
T2338 000:616.251   CPU_WriteMem(4 bytes @ 0xE0002000)
T2338 000:617.002   CPU_ReadMem(4 bytes @ 0xE0001000)
T2338 000:617.603   CPU_WriteMem(4 bytes @ 0xE0001000)
T2338 000:618.234   CPU_WriteMem(4 bytes @ 0xE0002008)
T2338 000:618.258   CPU_WriteMem(4 bytes @ 0xE000200C)
T2338 000:619.292   CPU_WriteMem(4 bytes @ 0xE0001004)
T2338 000:628.025   Memory map 'after startup completion point' is active
T2338 000:628.058 - 11.823ms
T2338 000:628.072 JLINK_IsHalted()
T2338 000:633.241 - 5.167ms returns TRUE
T2338 000:633.290 JLINK_ReadReg(R15 (PC))
T2338 000:633.308 - 0.018ms returns 0x1FFFFC00
T2338 000:633.325 JLINK_ClrBPEx(BPHandle = 0x00000001)
T2338 000:633.339 - 0.014ms returns 0x00
T2338 000:633.356 JLINK_ReadReg(R0)
T2338 000:633.369 - 0.013ms returns 0x00000000
T2338 000:634.111 JLINK_HasError()
T2338 000:634.149 JLINK_WriteReg(R0, 0x00000000)
T2338 000:634.164 - 0.014ms returns 0
T2338 000:634.175 JLINK_WriteReg(R1, 0x00000400)
T2338 000:634.185 - 0.009ms returns 0
T2338 000:634.198 JLINK_WriteReg(R2, 0x000000FF)
T2338 000:634.207 - 0.009ms returns 0
T2338 000:634.219 JLINK_WriteReg(R3, 0x00000000)
T2338 000:634.228 - 0.009ms returns 0
T2338 000:634.239 JLINK_WriteReg(R4, 0x00000000)
T2338 000:634.249 - 0.009ms returns 0
T2338 000:634.260 JLINK_WriteReg(R5, 0x00000000)
T2338 000:634.269 - 0.009ms returns 0
T2338 000:634.280 JLINK_WriteReg(R6, 0x00000000)
T2338 000:634.289 - 0.009ms returns 0
T2338 000:634.300 JLINK_WriteReg(R7, 0x00000000)
T2338 000:634.310 - 0.009ms returns 0
T2338 000:634.324 JLINK_WriteReg(R8, 0x00000000)
T2338 000:634.333 - 0.009ms returns 0
T2338 000:634.344 JLINK_WriteReg(R9, 0x200001C8)
T2338 000:634.353 - 0.009ms returns 0
T2338 000:634.364 JLINK_WriteReg(R10, 0x00000000)
T2338 000:634.374 - 0.009ms returns 0
T2338 000:634.404 JLINK_WriteReg(R11, 0x00000000)
T2338 000:634.414 - 0.010ms returns 0
T2338 000:634.431 JLINK_WriteReg(R12, 0x00000000)
T2338 000:634.442 - 0.010ms returns 0
T2338 000:634.458 JLINK_WriteReg(R13 (SP), 0x20000C00)
T2338 000:634.488 - 0.029ms returns 0
T2338 000:634.515 JLINK_WriteReg(R14, 0x1FFFFC01)
T2338 000:634.531 - 0.016ms returns 0
T2338 000:634.549 JLINK_WriteReg(R15 (PC), 0x1FFFFC68)
T2338 000:634.565 - 0.016ms returns 0
T2338 000:634.583 JLINK_WriteReg(XPSR, 0x01000000)
T2338 000:634.593 - 0.010ms returns 0
T2338 000:634.605 JLINK_WriteReg(MSP, 0x20000C00)
T2338 000:634.614 - 0.009ms returns 0
T2338 000:634.625 JLINK_WriteReg(PSP, 0x20000C00)
T2338 000:634.634 - 0.009ms returns 0
T2338 000:634.646 JLINK_WriteReg(CFBP, 0x00000000)
T2338 000:634.660 - 0.014ms returns 0
T2338 000:634.676 JLINK_SetBPEx(Addr = 0x1FFFFC00, Type = 0xFFFFFFF2)
T2338 000:634.707 - 0.031ms returns 0x00000002
T2338 000:634.732 JLINK_Go()
T2338 000:634.769   CPU_WriteMem(4 bytes @ 0xE0002000)
T2338 000:635.494   CPU_ReadMem(4 bytes @ 0xE0001000)
T2338 000:641.270 - 6.537ms
T2338 000:641.326 JLINK_IsHalted()
T2338 000:646.540 - 5.213ms returns TRUE
T2338 000:646.592 JLINK_ReadReg(R15 (PC))
T2338 000:646.606 - 0.013ms returns 0x1FFFFC00
T2338 000:646.687 JLINK_ClrBPEx(BPHandle = 0x00000002)
T2338 000:646.703 - 0.016ms returns 0x00
T2338 000:646.804 JLINK_ReadReg(R0)
T2338 000:646.825 - 0.021ms returns 0x00000001
T2338 000:646.838 JLINK_HasError()
T2338 000:646.851 JLINK_WriteReg(R0, 0x00000000)
T2338 000:646.861 - 0.010ms returns 0
T2338 000:646.872 JLINK_WriteReg(R1, 0x00000400)
T2338 000:646.882 - 0.009ms returns 0
T2338 000:646.893 JLINK_WriteReg(R2, 0x000000FF)
T2338 000:646.902 - 0.009ms returns 0
T2338 000:646.913 JLINK_WriteReg(R3, 0x00000000)
T2338 000:646.922 - 0.009ms returns 0
T2338 000:646.933 JLINK_WriteReg(R4, 0x00000000)
T2338 000:646.942 - 0.009ms returns 0
T2338 000:646.953 JLINK_WriteReg(R5, 0x00000000)
T2338 000:646.962 - 0.009ms returns 0
T2338 000:646.973 JLINK_WriteReg(R6, 0x00000000)
T2338 000:646.983 - 0.009ms returns 0
T2338 000:646.994 JLINK_WriteReg(R7, 0x00000000)
T2338 000:647.003 - 0.009ms returns 0
T2338 000:647.014 JLINK_WriteReg(R8, 0x00000000)
T2338 000:647.023 - 0.009ms returns 0
T2338 000:647.034 JLINK_WriteReg(R9, 0x200001C8)
T2338 000:647.043 - 0.009ms returns 0
T2338 000:647.054 JLINK_WriteReg(R10, 0x00000000)
T2338 000:647.063 - 0.009ms returns 0
T2338 000:647.074 JLINK_WriteReg(R11, 0x00000000)
T2338 000:647.083 - 0.009ms returns 0
T2338 000:647.094 JLINK_WriteReg(R12, 0x00000000)
T2338 000:647.103 - 0.009ms returns 0
T2338 000:647.115 JLINK_WriteReg(R13 (SP), 0x20000C00)
T2338 000:647.124 - 0.009ms returns 0
T2338 000:647.135 JLINK_WriteReg(R14, 0x1FFFFC01)
T2338 000:647.144 - 0.009ms returns 0
T2338 000:647.155 JLINK_WriteReg(R15 (PC), 0x1FFFFCBC)
T2338 000:647.164 - 0.009ms returns 0
T2338 000:647.175 JLINK_WriteReg(XPSR, 0x01000000)
T2338 000:647.185 - 0.009ms returns 0
T2338 000:647.196 JLINK_WriteReg(MSP, 0x20000C00)
T2338 000:647.205 - 0.009ms returns 0
T2338 000:647.216 JLINK_WriteReg(PSP, 0x20000C00)
T2338 000:647.225 - 0.009ms returns 0
T2338 000:647.236 JLINK_WriteReg(CFBP, 0x00000000)
T2338 000:647.245 - 0.009ms returns 0
T2338 000:647.257 JLINK_SetBPEx(Addr = 0x1FFFFC00, Type = 0xFFFFFFF2)
T2338 000:647.267 - 0.010ms returns 0x00000003
T2338 000:647.278 JLINK_Go()
T2338 000:647.293   CPU_WriteMem(4 bytes @ 0xE0002000)
T2338 000:648.038   CPU_ReadMem(4 bytes @ 0xE0001000)
T2338 000:653.669 - 6.389ms
T2338 000:653.704 JLINK_IsHalted()
T2338 000:654.301 - 0.596ms returns FALSE
T2338 000:654.323 JLINK_HasError()
T2338 000:673.924 JLINK_IsHalted()
T2338 000:679.290 - 5.363ms returns TRUE
T2338 000:679.382 JLINK_ReadReg(R15 (PC))
T2338 000:679.422 - 0.039ms returns 0x1FFFFC00
T2338 000:679.461 JLINK_ClrBPEx(BPHandle = 0x00000003)
T2338 000:679.493 - 0.032ms returns 0x00
T2338 000:679.530 JLINK_ReadReg(R0)
T2338 000:679.561 - 0.030ms returns 0x00000000
T2338 000:680.402 JLINK_HasError()
T2338 000:680.419 JLINK_WriteReg(R0, 0x00000400)
T2338 000:680.428 - 0.009ms returns 0
T2338 000:680.437 JLINK_WriteReg(R1, 0x00000400)
T2338 000:680.445 - 0.007ms returns 0
T2338 000:680.454 JLINK_WriteReg(R2, 0x000000FF)
T2338 000:680.462 - 0.007ms returns 0
T2338 000:680.471 JLINK_WriteReg(R3, 0x00000000)
T2338 000:680.478 - 0.007ms returns 0
T2338 000:680.487 JLINK_WriteReg(R4, 0x00000000)
T2338 000:680.495 - 0.007ms returns 0
T2338 000:680.503 JLINK_WriteReg(R5, 0x00000000)
T2338 000:680.511 - 0.007ms returns 0
T2338 000:680.520 JLINK_WriteReg(R6, 0x00000000)
T2338 000:680.527 - 0.007ms returns 0
T2338 000:680.536 JLINK_WriteReg(R7, 0x00000000)
T2338 000:680.544 - 0.007ms returns 0
T2338 000:680.552 JLINK_WriteReg(R8, 0x00000000)
T2338 000:680.560 - 0.007ms returns 0
T2338 000:680.569 JLINK_WriteReg(R9, 0x200001C8)
T2338 000:680.576 - 0.007ms returns 0
T2338 000:680.585 JLINK_WriteReg(R10, 0x00000000)
T2338 000:680.593 - 0.007ms returns 0
T2338 000:680.602 JLINK_WriteReg(R11, 0x00000000)
T2338 000:680.610 - 0.007ms returns 0
T2338 000:680.618 JLINK_WriteReg(R12, 0x00000000)
T2338 000:680.626 - 0.007ms returns 0
T2338 000:680.635 JLINK_WriteReg(R13 (SP), 0x20000C00)
T2338 000:680.643 - 0.008ms returns 0
T2338 000:680.652 JLINK_WriteReg(R14, 0x1FFFFC01)
T2338 000:680.667 - 0.015ms returns 0
T2338 000:680.677 JLINK_WriteReg(R15 (PC), 0x1FFFFC68)
T2338 000:680.684 - 0.007ms returns 0
T2338 000:680.693 JLINK_WriteReg(XPSR, 0x01000000)
T2338 000:680.701 - 0.007ms returns 0
T2338 000:680.710 JLINK_WriteReg(MSP, 0x20000C00)
T2338 000:680.717 - 0.007ms returns 0
T2338 000:680.726 JLINK_WriteReg(PSP, 0x20000C00)
T2338 000:680.734 - 0.007ms returns 0
T2338 000:680.743 JLINK_WriteReg(CFBP, 0x00000000)
T2338 000:680.750 - 0.007ms returns 0
T2338 000:680.760 JLINK_SetBPEx(Addr = 0x1FFFFC00, Type = 0xFFFFFFF2)
T2338 000:680.769 - 0.009ms returns 0x00000004
T2338 000:680.778 JLINK_Go()
T2338 000:680.791   CPU_WriteMem(4 bytes @ 0xE0002000)
T2338 000:681.386   CPU_ReadMem(4 bytes @ 0xE0001000)
T2338 000:687.006 - 6.226ms
T2338 000:687.069 JLINK_IsHalted()
T2338 000:692.543 - 5.472ms returns TRUE
T2338 000:692.605 JLINK_ReadReg(R15 (PC))
T2338 000:692.623 - 0.018ms returns 0x1FFFFC00
T2338 000:692.640 JLINK_ClrBPEx(BPHandle = 0x00000004)
T2338 000:692.664 - 0.023ms returns 0x00
T2338 000:692.675 JLINK_ReadReg(R0)
T2338 000:692.685 - 0.009ms returns 0x00000001
T2338 000:692.698 JLINK_HasError()
T2338 000:692.710 JLINK_WriteReg(R0, 0x00000400)
T2338 000:692.720 - 0.010ms returns 0
T2338 000:692.731 JLINK_WriteReg(R1, 0x00000400)
T2338 000:692.741 - 0.009ms returns 0
T2338 000:692.751 JLINK_WriteReg(R2, 0x000000FF)
T2338 000:692.761 - 0.009ms returns 0
T2338 000:692.772 JLINK_WriteReg(R3, 0x00000000)
T2338 000:692.781 - 0.009ms returns 0
T2338 000:692.792 JLINK_WriteReg(R4, 0x00000000)
T2338 000:692.801 - 0.009ms returns 0
T2338 000:692.812 JLINK_WriteReg(R5, 0x00000000)
T2338 000:692.822 - 0.009ms returns 0
T2338 000:692.832 JLINK_WriteReg(R6, 0x00000000)
T2338 000:692.842 - 0.009ms returns 0
T2338 000:692.853 JLINK_WriteReg(R7, 0x00000000)
T2338 000:692.862 - 0.009ms returns 0
T2338 000:692.873 JLINK_WriteReg(R8, 0x00000000)
T2338 000:692.882 - 0.009ms returns 0
T2338 000:692.893 JLINK_WriteReg(R9, 0x200001C8)
T2338 000:692.902 - 0.009ms returns 0
T2338 000:692.913 JLINK_WriteReg(R10, 0x00000000)
T2338 000:692.923 - 0.009ms returns 0
T2338 000:692.934 JLINK_WriteReg(R11, 0x00000000)
T2338 000:692.943 - 0.009ms returns 0
T2338 000:692.954 JLINK_WriteReg(R12, 0x00000000)
T2338 000:692.963 - 0.009ms returns 0
T2338 000:692.974 JLINK_WriteReg(R13 (SP), 0x20000C00)
T2338 000:692.984 - 0.010ms returns 0
T2338 000:692.995 JLINK_WriteReg(R14, 0x1FFFFC01)
T2338 000:693.005 - 0.009ms returns 0
T2338 000:693.016 JLINK_WriteReg(R15 (PC), 0x1FFFFCBC)
T2338 000:693.025 - 0.010ms returns 0
T2338 000:693.037 JLINK_WriteReg(XPSR, 0x01000000)
T2338 000:693.046 - 0.009ms returns 0
T2338 000:693.057 JLINK_WriteReg(MSP, 0x20000C00)
T2338 000:693.066 - 0.009ms returns 0
T2338 000:693.077 JLINK_WriteReg(PSP, 0x20000C00)
T2338 000:693.086 - 0.009ms returns 0
T2338 000:693.097 JLINK_WriteReg(CFBP, 0x00000000)
T2338 000:693.106 - 0.009ms returns 0
T2338 000:693.118 JLINK_SetBPEx(Addr = 0x1FFFFC00, Type = 0xFFFFFFF2)
T2338 000:693.128 - 0.010ms returns 0x00000005
T2338 000:693.139 JLINK_Go()
T2338 000:693.156   CPU_WriteMem(4 bytes @ 0xE0002000)
T2338 000:693.894   CPU_ReadMem(4 bytes @ 0xE0001000)
T2338 000:699.763 - 6.621ms
T2338 000:699.815 JLINK_IsHalted()
T2338 000:700.391 - 0.574ms returns FALSE
T2338 000:700.447 JLINK_HasError()
T2338 000:702.322 JLINK_IsHalted()
T2338 000:702.900 - 0.577ms returns FALSE
T2338 000:702.922 JLINK_HasError()
T2338 000:704.926 JLINK_IsHalted()
T2338 000:705.621 - 0.693ms returns FALSE
T2338 000:705.661 JLINK_HasError()
T2338 000:707.029 JLINK_IsHalted()
T2338 000:712.543 - 5.512ms returns TRUE
T2338 000:712.585 JLINK_ReadReg(R15 (PC))
T2338 000:712.600 - 0.014ms returns 0x1FFFFC00
T2338 000:712.611 JLINK_ClrBPEx(BPHandle = 0x00000005)
T2338 000:712.622 - 0.010ms returns 0x00
T2338 000:712.634 JLINK_ReadReg(R0)
T2338 000:712.645 - 0.010ms returns 0x00000000
T2338 000:713.446 JLINK_HasError()
T2338 000:713.466 JLINK_WriteReg(R0, 0x00000800)
T2338 000:713.478 - 0.011ms returns 0
T2338 000:713.498 JLINK_WriteReg(R1, 0x00000400)
T2338 000:713.508 - 0.010ms returns 0
T2338 000:713.519 JLINK_WriteReg(R2, 0x000000FF)
T2338 000:713.528 - 0.009ms returns 0
T2338 000:713.539 JLINK_WriteReg(R3, 0x00000000)
T2338 000:713.556 - 0.017ms returns 0
T2338 000:713.567 JLINK_WriteReg(R4, 0x00000000)
T2338 000:713.576 - 0.009ms returns 0
T2338 000:713.586 JLINK_WriteReg(R5, 0x00000000)
T2338 000:713.595 - 0.008ms returns 0
T2338 000:713.606 JLINK_WriteReg(R6, 0x00000000)
T2338 000:713.615 - 0.008ms returns 0
T2338 000:713.625 JLINK_WriteReg(R7, 0x00000000)
T2338 000:713.634 - 0.008ms returns 0
T2338 000:713.644 JLINK_WriteReg(R8, 0x00000000)
T2338 000:713.653 - 0.008ms returns 0
T2338 000:713.664 JLINK_WriteReg(R9, 0x200001C8)
T2338 000:713.672 - 0.008ms returns 0
T2338 000:713.683 JLINK_WriteReg(R10, 0x00000000)
T2338 000:713.692 - 0.009ms returns 0
T2338 000:713.711 JLINK_WriteReg(R11, 0x00000000)
T2338 000:713.719 - 0.007ms returns 0
T2338 000:713.728 JLINK_WriteReg(R12, 0x00000000)
T2338 000:713.736 - 0.007ms returns 0
T2338 000:713.745 JLINK_WriteReg(R13 (SP), 0x20000C00)
T2338 000:713.753 - 0.008ms returns 0
T2338 000:713.762 JLINK_WriteReg(R14, 0x1FFFFC01)
T2338 000:713.769 - 0.007ms returns 0
T2338 000:713.778 JLINK_WriteReg(R15 (PC), 0x1FFFFC68)
T2338 000:713.786 - 0.007ms returns 0
T2338 000:713.795 JLINK_WriteReg(XPSR, 0x01000000)
T2338 000:713.802 - 0.007ms returns 0
T2338 000:713.811 JLINK_WriteReg(MSP, 0x20000C00)
T2338 000:713.818 - 0.007ms returns 0
T2338 000:713.827 JLINK_WriteReg(PSP, 0x20000C00)
T2338 000:713.835 - 0.007ms returns 0
T2338 000:713.844 JLINK_WriteReg(CFBP, 0x00000000)
T2338 000:713.851 - 0.007ms returns 0
T2338 000:713.861 JLINK_SetBPEx(Addr = 0x1FFFFC00, Type = 0xFFFFFFF2)
T2338 000:713.870 - 0.009ms returns 0x00000006
T2338 000:713.879 JLINK_Go()
T2338 000:713.895   CPU_WriteMem(4 bytes @ 0xE0002000)
T2338 000:714.614   CPU_ReadMem(4 bytes @ 0xE0001000)
T2338 000:720.443 - 6.562ms
T2338 000:720.482 JLINK_IsHalted()
T2338 000:725.681 - 5.197ms returns TRUE
T2338 000:725.724 JLINK_ReadReg(R15 (PC))
T2338 000:725.737 - 0.013ms returns 0x1FFFFC00
T2338 000:725.838 JLINK_ClrBPEx(BPHandle = 0x00000006)
T2338 000:725.859 - 0.021ms returns 0x00
T2338 000:725.872 JLINK_ReadReg(R0)
T2338 000:725.882 - 0.010ms returns 0x00000001
T2338 000:725.894 JLINK_HasError()
T2338 000:725.906 JLINK_WriteReg(R0, 0x00000800)
T2338 000:725.917 - 0.010ms returns 0
T2338 000:725.928 JLINK_WriteReg(R1, 0x00000400)
T2338 000:725.937 - 0.009ms returns 0
T2338 000:725.948 JLINK_WriteReg(R2, 0x000000FF)
T2338 000:725.958 - 0.009ms returns 0
T2338 000:725.968 JLINK_WriteReg(R3, 0x00000000)
T2338 000:725.977 - 0.009ms returns 0
T2338 000:725.988 JLINK_WriteReg(R4, 0x00000000)
T2338 000:725.997 - 0.009ms returns 0
T2338 000:726.008 JLINK_WriteReg(R5, 0x00000000)
T2338 000:726.018 - 0.009ms returns 0
T2338 000:726.028 JLINK_WriteReg(R6, 0x00000000)
T2338 000:726.038 - 0.009ms returns 0
T2338 000:726.048 JLINK_WriteReg(R7, 0x00000000)
T2338 000:726.058 - 0.009ms returns 0
T2338 000:726.068 JLINK_WriteReg(R8, 0x00000000)
T2338 000:726.078 - 0.009ms returns 0
T2338 000:726.088 JLINK_WriteReg(R9, 0x200001C8)
T2338 000:726.098 - 0.009ms returns 0
T2338 000:726.109 JLINK_WriteReg(R10, 0x00000000)
T2338 000:726.118 - 0.009ms returns 0
T2338 000:726.129 JLINK_WriteReg(R11, 0x00000000)
T2338 000:726.138 - 0.009ms returns 0
T2338 000:726.149 JLINK_WriteReg(R12, 0x00000000)
T2338 000:726.158 - 0.009ms returns 0
T2338 000:726.169 JLINK_WriteReg(R13 (SP), 0x20000C00)
T2338 000:726.178 - 0.009ms returns 0
T2338 000:726.189 JLINK_WriteReg(R14, 0x1FFFFC01)
T2338 000:726.199 - 0.009ms returns 0
T2338 000:726.210 JLINK_WriteReg(R15 (PC), 0x1FFFFCBC)
T2338 000:726.219 - 0.009ms returns 0
T2338 000:726.230 JLINK_WriteReg(XPSR, 0x01000000)
T2338 000:726.248 - 0.018ms returns 0
T2338 000:726.256 JLINK_WriteReg(MSP, 0x20000C00)
T2338 000:726.264 - 0.007ms returns 0
T2338 000:726.273 JLINK_WriteReg(PSP, 0x20000C00)
T2338 000:726.280 - 0.007ms returns 0
T2338 000:726.297 JLINK_WriteReg(CFBP, 0x00000000)
T2338 000:726.305 - 0.008ms returns 0
T2338 000:726.314 JLINK_SetBPEx(Addr = 0x1FFFFC00, Type = 0xFFFFFFF2)
T2338 000:726.323 - 0.009ms returns 0x00000007
T2338 000:726.334 JLINK_Go()
T2338 000:726.347   CPU_WriteMem(4 bytes @ 0xE0002000)
T2338 000:727.055   CPU_ReadMem(4 bytes @ 0xE0001000)
T2338 000:732.756 - 6.420ms
T2338 000:732.806 JLINK_IsHalted()
T2338 000:733.342 - 0.535ms returns FALSE
T2338 000:733.363 JLINK_HasError()
T2338 000:736.477 JLINK_IsHalted()
T2338 000:737.250 - 0.772ms returns FALSE
T2338 000:737.290 JLINK_HasError()
T2338 000:739.310 JLINK_IsHalted()
T2338 000:740.054 - 0.743ms returns FALSE
T2338 000:740.095 JLINK_HasError()
T2338 000:741.366 JLINK_IsHalted()
T2338 000:746.672 - 5.305ms returns TRUE
T2338 000:746.711 JLINK_ReadReg(R15 (PC))
T2338 000:746.724 - 0.013ms returns 0x1FFFFC00
T2338 000:746.736 JLINK_ClrBPEx(BPHandle = 0x00000007)
T2338 000:746.746 - 0.010ms returns 0x00
T2338 000:746.758 JLINK_ReadReg(R0)
T2338 000:746.767 - 0.009ms returns 0x00000000
T2338 000:747.555 JLINK_HasError()
T2338 000:747.577 JLINK_WriteReg(R0, 0x00000C00)
T2338 000:747.598 - 0.020ms returns 0
T2338 000:747.607 JLINK_WriteReg(R1, 0x00000400)
T2338 000:747.615 - 0.008ms returns 0
T2338 000:747.624 JLINK_WriteReg(R2, 0x000000FF)
T2338 000:747.632 - 0.007ms returns 0
T2338 000:747.641 JLINK_WriteReg(R3, 0x00000000)
T2338 000:747.648 - 0.007ms returns 0
T2338 000:747.657 JLINK_WriteReg(R4, 0x00000000)
T2338 000:747.665 - 0.007ms returns 0
T2338 000:747.673 JLINK_WriteReg(R5, 0x00000000)
T2338 000:747.681 - 0.007ms returns 0
T2338 000:747.690 JLINK_WriteReg(R6, 0x00000000)
T2338 000:747.697 - 0.007ms returns 0
T2338 000:747.706 JLINK_WriteReg(R7, 0x00000000)
T2338 000:747.714 - 0.007ms returns 0
T2338 000:747.722 JLINK_WriteReg(R8, 0x00000000)
T2338 000:747.730 - 0.007ms returns 0
T2338 000:747.739 JLINK_WriteReg(R9, 0x200001C8)
T2338 000:747.747 - 0.007ms returns 0
T2338 000:747.755 JLINK_WriteReg(R10, 0x00000000)
T2338 000:747.763 - 0.007ms returns 0
T2338 000:747.772 JLINK_WriteReg(R11, 0x00000000)
T2338 000:747.779 - 0.007ms returns 0
T2338 000:747.788 JLINK_WriteReg(R12, 0x00000000)
T2338 000:747.796 - 0.007ms returns 0
T2338 000:747.805 JLINK_WriteReg(R13 (SP), 0x20000C00)
T2338 000:747.813 - 0.008ms returns 0
T2338 000:747.822 JLINK_WriteReg(R14, 0x1FFFFC01)
T2338 000:747.830 - 0.007ms returns 0
T2338 000:747.838 JLINK_WriteReg(R15 (PC), 0x1FFFFC68)
T2338 000:747.846 - 0.007ms returns 0
T2338 000:747.855 JLINK_WriteReg(XPSR, 0x01000000)
T2338 000:747.863 - 0.007ms returns 0
T2338 000:747.871 JLINK_WriteReg(MSP, 0x20000C00)
T2338 000:747.879 - 0.007ms returns 0
T2338 000:747.888 JLINK_WriteReg(PSP, 0x20000C00)
T2338 000:747.896 - 0.007ms returns 0
T2338 000:747.905 JLINK_WriteReg(CFBP, 0x00000000)
T2338 000:747.912 - 0.007ms returns 0
T2338 000:747.922 JLINK_SetBPEx(Addr = 0x1FFFFC00, Type = 0xFFFFFFF2)
T2338 000:747.930 - 0.009ms returns 0x00000008
T2338 000:747.939 JLINK_Go()
T2338 000:747.952   CPU_WriteMem(4 bytes @ 0xE0002000)
T2338 000:748.713   CPU_ReadMem(4 bytes @ 0xE0001000)
T2338 000:754.505 - 6.564ms
T2338 000:754.544 JLINK_IsHalted()
T2338 000:759.883 - 5.337ms returns TRUE
T2338 000:759.946 JLINK_ReadReg(R15 (PC))
T2338 000:759.965 - 0.018ms returns 0x1FFFFC00
T2338 000:760.082 JLINK_ClrBPEx(BPHandle = 0x00000008)
T2338 000:760.104 - 0.021ms returns 0x00
T2338 000:760.116 JLINK_ReadReg(R0)
T2338 000:760.127 - 0.010ms returns 0x00000001
T2338 000:760.139 JLINK_HasError()
T2338 000:760.152 JLINK_WriteReg(R0, 0x00000C00)
T2338 000:760.162 - 0.010ms returns 0
T2338 000:760.173 JLINK_WriteReg(R1, 0x00000400)
T2338 000:760.182 - 0.009ms returns 0
T2338 000:760.193 JLINK_WriteReg(R2, 0x000000FF)
T2338 000:760.202 - 0.009ms returns 0
T2338 000:760.213 JLINK_WriteReg(R3, 0x00000000)
T2338 000:760.222 - 0.009ms returns 0
T2338 000:760.233 JLINK_WriteReg(R4, 0x00000000)
T2338 000:760.242 - 0.009ms returns 0
T2338 000:760.253 JLINK_WriteReg(R5, 0x00000000)
T2338 000:760.347 - 0.093ms returns 0
T2338 000:760.364 JLINK_WriteReg(R6, 0x00000000)
T2338 000:760.373 - 0.009ms returns 0
T2338 000:760.384 JLINK_WriteReg(R7, 0x00000000)
T2338 000:760.393 - 0.009ms returns 0
T2338 000:760.404 JLINK_WriteReg(R8, 0x00000000)
T2338 000:760.414 - 0.009ms returns 0
T2338 000:760.425 JLINK_WriteReg(R9, 0x200001C8)
T2338 000:760.434 - 0.009ms returns 0
T2338 000:760.445 JLINK_WriteReg(R10, 0x00000000)
T2338 000:760.454 - 0.009ms returns 0
T2338 000:760.465 JLINK_WriteReg(R11, 0x00000000)
T2338 000:760.475 - 0.009ms returns 0
T2338 000:760.486 JLINK_WriteReg(R12, 0x00000000)
T2338 000:760.495 - 0.009ms returns 0
T2338 000:760.506 JLINK_WriteReg(R13 (SP), 0x20000C00)
T2338 000:760.516 - 0.009ms returns 0
T2338 000:760.526 JLINK_WriteReg(R14, 0x1FFFFC01)
T2338 000:760.536 - 0.009ms returns 0
T2338 000:760.547 JLINK_WriteReg(R15 (PC), 0x1FFFFCBC)
T2338 000:760.556 - 0.009ms returns 0
T2338 000:760.567 JLINK_WriteReg(XPSR, 0x01000000)
T2338 000:760.576 - 0.009ms returns 0
T2338 000:760.587 JLINK_WriteReg(MSP, 0x20000C00)
T2338 000:760.596 - 0.009ms returns 0
T2338 000:760.607 JLINK_WriteReg(PSP, 0x20000C00)
T2338 000:760.617 - 0.009ms returns 0
T2338 000:760.628 JLINK_WriteReg(CFBP, 0x00000000)
T2338 000:760.637 - 0.009ms returns 0
T2338 000:760.649 JLINK_SetBPEx(Addr = 0x1FFFFC00, Type = 0xFFFFFFF2)
T2338 000:760.660 - 0.011ms returns 0x00000009
T2338 000:760.671 JLINK_Go()
T2338 000:760.686   CPU_WriteMem(4 bytes @ 0xE0002000)
T2338 000:761.405   CPU_ReadMem(4 bytes @ 0xE0001000)
T2338 000:767.070 - 6.394ms
T2338 000:767.134 JLINK_IsHalted()
T2338 000:767.699 - 0.564ms returns FALSE
T2338 000:767.735 JLINK_HasError()
T2338 000:769.052 JLINK_IsHalted()
T2338 000:769.764 - 0.710ms returns FALSE
T2338 000:769.805 JLINK_HasError()
T2338 000:771.077 JLINK_IsHalted()
T2338 000:771.847 - 0.768ms returns FALSE
T2338 000:771.896 JLINK_HasError()
T2338 000:774.099 JLINK_IsHalted()
T2338 000:779.574 - 5.474ms returns TRUE
T2338 000:779.622 JLINK_ReadReg(R15 (PC))
T2338 000:779.640 - 0.017ms returns 0x1FFFFC00
T2338 000:779.657 JLINK_ClrBPEx(BPHandle = 0x00000009)
T2338 000:779.672 - 0.014ms returns 0x00
T2338 000:779.688 JLINK_ReadReg(R0)
T2338 000:779.702 - 0.013ms returns 0x00000000
T2338 000:780.526 JLINK_HasError()
T2338 000:780.542 JLINK_WriteReg(R0, 0x00001000)
T2338 000:780.552 - 0.009ms returns 0
T2338 000:780.562 JLINK_WriteReg(R1, 0x00000400)
T2338 000:780.570 - 0.007ms returns 0
T2338 000:780.578 JLINK_WriteReg(R2, 0x000000FF)
T2338 000:780.586 - 0.007ms returns 0
T2338 000:780.595 JLINK_WriteReg(R3, 0x00000000)
T2338 000:780.602 - 0.007ms returns 0
T2338 000:780.611 JLINK_WriteReg(R4, 0x00000000)
T2338 000:780.619 - 0.007ms returns 0
T2338 000:780.628 JLINK_WriteReg(R5, 0x00000000)
T2338 000:780.635 - 0.007ms returns 0
T2338 000:780.644 JLINK_WriteReg(R6, 0x00000000)
T2338 000:780.652 - 0.007ms returns 0
T2338 000:780.660 JLINK_WriteReg(R7, 0x00000000)
T2338 000:780.668 - 0.007ms returns 0
T2338 000:780.677 JLINK_WriteReg(R8, 0x00000000)
T2338 000:780.684 - 0.007ms returns 0
T2338 000:780.693 JLINK_WriteReg(R9, 0x200001C8)
T2338 000:780.700 - 0.007ms returns 0
T2338 000:780.709 JLINK_WriteReg(R10, 0x00000000)
T2338 000:780.717 - 0.007ms returns 0
T2338 000:780.726 JLINK_WriteReg(R11, 0x00000000)
T2338 000:780.733 - 0.007ms returns 0
T2338 000:780.742 JLINK_WriteReg(R12, 0x00000000)
T2338 000:780.750 - 0.007ms returns 0
T2338 000:780.759 JLINK_WriteReg(R13 (SP), 0x20000C00)
T2338 000:780.767 - 0.008ms returns 0
T2338 000:780.775 JLINK_WriteReg(R14, 0x1FFFFC01)
T2338 000:780.783 - 0.007ms returns 0
T2338 000:780.792 JLINK_WriteReg(R15 (PC), 0x1FFFFC68)
T2338 000:780.800 - 0.007ms returns 0
T2338 000:780.809 JLINK_WriteReg(XPSR, 0x01000000)
T2338 000:780.816 - 0.007ms returns 0
T2338 000:780.825 JLINK_WriteReg(MSP, 0x20000C00)
T2338 000:780.833 - 0.007ms returns 0
T2338 000:780.842 JLINK_WriteReg(PSP, 0x20000C00)
T2338 000:780.849 - 0.007ms returns 0
T2338 000:780.858 JLINK_WriteReg(CFBP, 0x00000000)
T2338 000:780.870 - 0.011ms returns 0
T2338 000:780.883 JLINK_SetBPEx(Addr = 0x1FFFFC00, Type = 0xFFFFFFF2)
T2338 000:780.892 - 0.009ms returns 0x0000000A
T2338 000:780.901 JLINK_Go()
T2338 000:780.914   CPU_WriteMem(4 bytes @ 0xE0002000)
T2338 000:781.674   CPU_ReadMem(4 bytes @ 0xE0001000)
T2338 000:787.021 - 6.118ms
T2338 000:787.062 JLINK_IsHalted()
T2338 000:792.113 - 5.049ms returns TRUE
T2338 000:792.169 JLINK_ReadReg(R15 (PC))
T2338 000:792.196 - 0.027ms returns 0x1FFFFC00
T2338 000:792.216 JLINK_ClrBPEx(BPHandle = 0x0000000A)
T2338 000:792.241 - 0.025ms returns 0x00
T2338 000:792.265 JLINK_ReadReg(R0)
T2338 000:792.288 - 0.023ms returns 0x00000001
T2338 000:792.312 JLINK_HasError()
T2338 000:792.343 JLINK_WriteReg(R0, 0x00001000)
T2338 000:792.366 - 0.023ms returns 0
T2338 000:792.389 JLINK_WriteReg(R1, 0x00000400)
T2338 000:792.411 - 0.024ms returns 0
T2338 000:792.434 JLINK_WriteReg(R2, 0x000000FF)
T2338 000:792.457 - 0.022ms returns 0
T2338 000:792.479 JLINK_WriteReg(R3, 0x00000000)
T2338 000:792.501 - 0.024ms returns 0
T2338 000:792.524 JLINK_WriteReg(R4, 0x00000000)
T2338 000:792.546 - 0.024ms returns 0
T2338 000:792.569 JLINK_WriteReg(R5, 0x00000000)
T2338 000:792.591 - 0.024ms returns 0
T2338 000:792.614 JLINK_WriteReg(R6, 0x00000000)
T2338 000:792.638 - 0.024ms returns 0
T2338 000:792.662 JLINK_WriteReg(R7, 0x00000000)
T2338 000:792.684 - 0.024ms returns 0
T2338 000:792.707 JLINK_WriteReg(R8, 0x00000000)
T2338 000:792.729 - 0.024ms returns 0
T2338 000:792.752 JLINK_WriteReg(R9, 0x200001C8)
T2338 000:792.774 - 0.024ms returns 0
T2338 000:792.798 JLINK_WriteReg(R10, 0x00000000)
T2338 000:792.820 - 0.024ms returns 0
T2338 000:792.843 JLINK_WriteReg(R11, 0x00000000)
T2338 000:792.865 - 0.025ms returns 0
T2338 000:792.888 JLINK_WriteReg(R12, 0x00000000)
T2338 000:792.928 - 0.041ms returns 0
T2338 000:792.953 JLINK_WriteReg(R13 (SP), 0x20000C00)
T2338 000:792.976 - 0.023ms returns 0
T2338 000:792.999 JLINK_WriteReg(R14, 0x1FFFFC01)
T2338 000:793.021 - 0.024ms returns 0
T2338 000:793.044 JLINK_WriteReg(R15 (PC), 0x1FFFFCBC)
T2338 000:793.066 - 0.025ms returns 0
T2338 000:793.089 JLINK_WriteReg(XPSR, 0x01000000)
T2338 000:793.112 - 0.024ms returns 0
T2338 000:793.135 JLINK_WriteReg(MSP, 0x20000C00)
T2338 000:793.157 - 0.024ms returns 0
T2338 000:793.180 JLINK_WriteReg(PSP, 0x20000C00)
T2338 000:793.202 - 0.024ms returns 0
T2338 000:793.225 JLINK_WriteReg(CFBP, 0x00000000)
T2338 000:793.247 - 0.024ms returns 0
T2338 000:793.271 JLINK_SetBPEx(Addr = 0x1FFFFC00, Type = 0xFFFFFFF2)
T2338 000:793.295 - 0.026ms returns 0x0000000B
T2338 000:793.316 JLINK_Go()
T2338 000:793.345   CPU_WriteMem(4 bytes @ 0xE0002000)
T2338 000:793.906   CPU_ReadMem(4 bytes @ 0xE0001000)
T2338 000:799.746 - 6.430ms
T2338 000:799.789 JLINK_IsHalted()
T2338 000:800.406 - 0.614ms returns FALSE
T2338 000:800.487 JLINK_HasError()
T2338 000:801.803 JLINK_IsHalted()
T2338 000:802.549 - 0.748ms returns FALSE
T2338 000:802.590 JLINK_HasError()
T2338 000:804.645 JLINK_IsHalted()
T2338 000:805.420 - 0.774ms returns FALSE
T2338 000:805.470 JLINK_HasError()
T2338 000:807.530 JLINK_IsHalted()
T2338 000:812.745 - 5.213ms returns TRUE
T2338 000:812.793 JLINK_ReadReg(R15 (PC))
T2338 000:812.806 - 0.013ms returns 0x1FFFFC00
T2338 000:812.818 JLINK_ClrBPEx(BPHandle = 0x0000000B)
T2338 000:812.828 - 0.010ms returns 0x00
T2338 000:812.840 JLINK_ReadReg(R0)
T2338 000:812.849 - 0.009ms returns 0x00000000
T2338 000:813.644 JLINK_HasError()
T2338 000:813.663 JLINK_WriteReg(R0, 0x00001400)
T2338 000:813.675 - 0.011ms returns 0
T2338 000:813.686 JLINK_WriteReg(R1, 0x00000400)
T2338 000:813.695 - 0.009ms returns 0
T2338 000:813.706 JLINK_WriteReg(R2, 0x000000FF)
T2338 000:813.715 - 0.009ms returns 0
T2338 000:813.725 JLINK_WriteReg(R3, 0x00000000)
T2338 000:813.734 - 0.009ms returns 0
T2338 000:813.744 JLINK_WriteReg(R4, 0x00000000)
T2338 000:813.753 - 0.008ms returns 0
T2338 000:813.764 JLINK_WriteReg(R5, 0x00000000)
T2338 000:813.772 - 0.008ms returns 0
T2338 000:813.788 JLINK_WriteReg(R6, 0x00000000)
T2338 000:813.801 - 0.013ms returns 0
T2338 000:813.812 JLINK_WriteReg(R7, 0x00000000)
T2338 000:813.821 - 0.009ms returns 0
T2338 000:813.831 JLINK_WriteReg(R8, 0x00000000)
T2338 000:813.840 - 0.009ms returns 0
T2338 000:813.851 JLINK_WriteReg(R9, 0x200001C8)
T2338 000:813.859 - 0.008ms returns 0
T2338 000:813.870 JLINK_WriteReg(R10, 0x00000000)
T2338 000:813.879 - 0.009ms returns 0
T2338 000:813.890 JLINK_WriteReg(R11, 0x00000000)
T2338 000:813.899 - 0.009ms returns 0
T2338 000:813.909 JLINK_WriteReg(R12, 0x00000000)
T2338 000:813.918 - 0.008ms returns 0
T2338 000:813.929 JLINK_WriteReg(R13 (SP), 0x20000C00)
T2338 000:813.938 - 0.009ms returns 0
T2338 000:813.949 JLINK_WriteReg(R14, 0x1FFFFC01)
T2338 000:813.966 - 0.017ms returns 0
T2338 000:813.975 JLINK_WriteReg(R15 (PC), 0x1FFFFC68)
T2338 000:813.983 - 0.007ms returns 0
T2338 000:813.992 JLINK_WriteReg(XPSR, 0x01000000)
T2338 000:814.000 - 0.007ms returns 0
T2338 000:814.009 JLINK_WriteReg(MSP, 0x20000C00)
T2338 000:814.016 - 0.007ms returns 0
T2338 000:814.025 JLINK_WriteReg(PSP, 0x20000C00)
T2338 000:814.033 - 0.007ms returns 0
T2338 000:814.041 JLINK_WriteReg(CFBP, 0x00000000)
T2338 000:814.049 - 0.007ms returns 0
T2338 000:814.058 JLINK_SetBPEx(Addr = 0x1FFFFC00, Type = 0xFFFFFFF2)
T2338 000:814.067 - 0.009ms returns 0x0000000C
T2338 000:814.076 JLINK_Go()
T2338 000:814.089   CPU_WriteMem(4 bytes @ 0xE0002000)
T2338 000:814.900   CPU_ReadMem(4 bytes @ 0xE0001000)
T2338 000:820.568 - 6.490ms
T2338 000:820.608 JLINK_IsHalted()
T2338 000:825.598 - 4.988ms returns TRUE
T2338 000:825.872 JLINK_ReadReg(R15 (PC))
T2338 000:825.908 - 0.036ms returns 0x1FFFFC00
T2338 000:825.928 JLINK_ClrBPEx(BPHandle = 0x0000000C)
T2338 000:825.952 - 0.026ms returns 0x00
T2338 000:825.972 JLINK_ReadReg(R0)
T2338 000:825.983 - 0.011ms returns 0x00000001
T2338 000:826.105 JLINK_HasError()
T2338 000:826.136 JLINK_WriteReg(R0, 0x00001400)
T2338 000:826.149 - 0.012ms returns 0
T2338 000:826.161 JLINK_WriteReg(R1, 0x00000400)
T2338 000:826.171 - 0.009ms returns 0
T2338 000:826.182 JLINK_WriteReg(R2, 0x000000FF)
T2338 000:826.193 - 0.010ms returns 0
T2338 000:826.203 JLINK_WriteReg(R3, 0x00000000)
T2338 000:826.212 - 0.009ms returns 0
T2338 000:826.223 JLINK_WriteReg(R4, 0x00000000)
T2338 000:826.242 - 0.019ms returns 0
T2338 000:826.251 JLINK_WriteReg(R5, 0x00000000)
T2338 000:826.284 - 0.033ms returns 0
T2338 000:826.294 JLINK_WriteReg(R6, 0x00000000)
T2338 000:826.313 - 0.019ms returns 0
T2338 000:826.335 JLINK_WriteReg(R7, 0x00000000)
T2338 000:826.344 - 0.009ms returns 0
T2338 000:826.355 JLINK_WriteReg(R8, 0x00000000)
T2338 000:826.365 - 0.010ms returns 0
T2338 000:826.376 JLINK_WriteReg(R9, 0x200001C8)
T2338 000:826.385 - 0.009ms returns 0
T2338 000:826.405 JLINK_WriteReg(R10, 0x00000000)
T2338 000:826.414 - 0.008ms returns 0
T2338 000:826.444 JLINK_WriteReg(R11, 0x00000000)
T2338 000:826.454 - 0.009ms returns 0
T2338 000:826.465 JLINK_WriteReg(R12, 0x00000000)
T2338 000:826.474 - 0.009ms returns 0
T2338 000:826.494 JLINK_WriteReg(R13 (SP), 0x20000C00)
T2338 000:826.502 - 0.008ms returns 0
T2338 000:826.511 JLINK_WriteReg(R14, 0x1FFFFC01)
T2338 000:826.519 - 0.007ms returns 0
T2338 000:826.528 JLINK_WriteReg(R15 (PC), 0x1FFFFCBC)
T2338 000:826.535 - 0.007ms returns 0
T2338 000:826.544 JLINK_WriteReg(XPSR, 0x01000000)
T2338 000:826.552 - 0.007ms returns 0
T2338 000:826.561 JLINK_WriteReg(MSP, 0x20000C00)
T2338 000:826.568 - 0.007ms returns 0
T2338 000:826.577 JLINK_WriteReg(PSP, 0x20000C00)
T2338 000:826.585 - 0.007ms returns 0
T2338 000:826.594 JLINK_WriteReg(CFBP, 0x00000000)
T2338 000:826.601 - 0.007ms returns 0
T2338 000:826.611 JLINK_SetBPEx(Addr = 0x1FFFFC00, Type = 0xFFFFFFF2)
T2338 000:826.620 - 0.009ms returns 0x0000000D
T2338 000:826.629 JLINK_Go()
T2338 000:826.642   CPU_WriteMem(4 bytes @ 0xE0002000)
T2338 000:827.354   CPU_ReadMem(4 bytes @ 0xE0001000)
T2338 000:832.824 - 6.191ms
T2338 000:832.885 JLINK_IsHalted()
T2338 000:833.515 - 0.629ms returns FALSE
T2338 000:833.573 JLINK_HasError()
T2338 000:836.591 JLINK_IsHalted()
T2338 000:837.419 - 0.826ms returns FALSE
T2338 000:837.459 JLINK_HasError()
T2338 000:839.489 JLINK_IsHalted()
T2338 000:844.830 - 5.340ms returns TRUE
T2338 000:844.878 JLINK_ReadReg(R15 (PC))
T2338 000:844.891 - 0.013ms returns 0x1FFFFC00
T2338 000:844.903 JLINK_ClrBPEx(BPHandle = 0x0000000D)
T2338 000:844.913 - 0.010ms returns 0x00
T2338 000:844.925 JLINK_ReadReg(R0)
T2338 000:844.934 - 0.009ms returns 0x00000000
T2338 000:845.725 JLINK_HasError()
T2338 000:845.745 JLINK_WriteReg(R0, 0x00001800)
T2338 000:845.757 - 0.011ms returns 0
T2338 000:845.801 JLINK_WriteReg(R1, 0x00000400)
T2338 000:845.824 - 0.023ms returns 0
T2338 000:845.835 JLINK_WriteReg(R2, 0x000000FF)
T2338 000:845.844 - 0.009ms returns 0
T2338 000:845.855 JLINK_WriteReg(R3, 0x00000000)
T2338 000:845.864 - 0.008ms returns 0
T2338 000:845.874 JLINK_WriteReg(R4, 0x00000000)
T2338 000:845.883 - 0.009ms returns 0
T2338 000:845.894 JLINK_WriteReg(R5, 0x00000000)
T2338 000:845.903 - 0.009ms returns 0
T2338 000:845.913 JLINK_WriteReg(R6, 0x00000000)
T2338 000:845.922 - 0.008ms returns 0
T2338 000:845.933 JLINK_WriteReg(R7, 0x00000000)
T2338 000:845.942 - 0.009ms returns 0
T2338 000:845.955 JLINK_WriteReg(R8, 0x00000000)
T2338 000:845.968 - 0.014ms returns 0
T2338 000:846.088 JLINK_WriteReg(R9, 0x200001C8)
T2338 000:846.128 - 0.040ms returns 0
T2338 000:846.154 JLINK_WriteReg(R10, 0x00000000)
T2338 000:846.175 - 0.021ms returns 0
T2338 000:846.199 JLINK_WriteReg(R11, 0x00000000)
T2338 000:846.219 - 0.020ms returns 0
T2338 000:846.243 JLINK_WriteReg(R12, 0x00000000)
T2338 000:846.263 - 0.020ms returns 0
T2338 000:846.287 JLINK_WriteReg(R13 (SP), 0x20000C00)
T2338 000:846.308 - 0.021ms returns 0
T2338 000:846.332 JLINK_WriteReg(R14, 0x1FFFFC01)
T2338 000:846.352 - 0.020ms returns 0
T2338 000:846.376 JLINK_WriteReg(R15 (PC), 0x1FFFFC68)
T2338 000:846.396 - 0.020ms returns 0
T2338 000:846.420 JLINK_WriteReg(XPSR, 0x01000000)
T2338 000:846.440 - 0.020ms returns 0
T2338 000:846.464 JLINK_WriteReg(MSP, 0x20000C00)
T2338 000:846.484 - 0.020ms returns 0
T2338 000:846.508 JLINK_WriteReg(PSP, 0x20000C00)
T2338 000:846.528 - 0.020ms returns 0
T2338 000:846.552 JLINK_WriteReg(CFBP, 0x00000000)
T2338 000:846.572 - 0.020ms returns 0
T2338 000:846.597 JLINK_SetBPEx(Addr = 0x1FFFFC00, Type = 0xFFFFFFF2)
T2338 000:846.622 - 0.025ms returns 0x0000000E
T2338 000:846.646 JLINK_Go()
T2338 000:846.676   CPU_WriteMem(4 bytes @ 0xE0002000)
T2338 000:847.428   CPU_ReadMem(4 bytes @ 0xE0001000)
T2338 000:853.291 - 6.644ms
T2338 000:853.358 JLINK_IsHalted()
T2338 000:858.753 - 5.393ms returns TRUE
T2338 000:858.826 JLINK_ReadReg(R15 (PC))
T2338 000:858.854 - 0.027ms returns 0x1FFFFC00
T2338 000:859.003 JLINK_ClrBPEx(BPHandle = 0x0000000E)
T2338 000:859.048 - 0.045ms returns 0x00
T2338 000:859.075 JLINK_ReadReg(R0)
T2338 000:859.099 - 0.022ms returns 0x00000001
T2338 000:859.124 JLINK_HasError()
T2338 000:859.150 JLINK_WriteReg(R0, 0x00001800)
T2338 000:859.172 - 0.022ms returns 0
T2338 000:859.196 JLINK_WriteReg(R1, 0x00000400)
T2338 000:859.216 - 0.020ms returns 0
T2338 000:859.240 JLINK_WriteReg(R2, 0x000000FF)
T2338 000:859.259 - 0.020ms returns 0
T2338 000:859.283 JLINK_WriteReg(R3, 0x00000000)
T2338 000:859.303 - 0.019ms returns 0
T2338 000:859.326 JLINK_WriteReg(R4, 0x00000000)
T2338 000:859.346 - 0.019ms returns 0
T2338 000:859.370 JLINK_WriteReg(R5, 0x00000000)
T2338 000:859.390 - 0.019ms returns 0
T2338 000:859.413 JLINK_WriteReg(R6, 0x00000000)
T2338 000:859.433 - 0.019ms returns 0
T2338 000:859.457 JLINK_WriteReg(R7, 0x00000000)
T2338 000:859.477 - 0.020ms returns 0
T2338 000:859.501 JLINK_WriteReg(R8, 0x00000000)
T2338 000:859.520 - 0.020ms returns 0
T2338 000:859.544 JLINK_WriteReg(R9, 0x200001C8)
T2338 000:859.564 - 0.019ms returns 0
T2338 000:859.587 JLINK_WriteReg(R10, 0x00000000)
T2338 000:859.608 - 0.020ms returns 0
T2338 000:859.631 JLINK_WriteReg(R11, 0x00000000)
T2338 000:859.652 - 0.020ms returns 0
T2338 000:859.694 JLINK_WriteReg(R12, 0x00000000)
T2338 000:859.722 - 0.028ms returns 0
T2338 000:859.747 JLINK_WriteReg(R13 (SP), 0x20000C00)
T2338 000:859.768 - 0.021ms returns 0
T2338 000:859.792 JLINK_WriteReg(R14, 0x1FFFFC01)
T2338 000:859.812 - 0.020ms returns 0
T2338 000:859.836 JLINK_WriteReg(R15 (PC), 0x1FFFFCBC)
T2338 000:859.856 - 0.020ms returns 0
T2338 000:859.880 JLINK_WriteReg(XPSR, 0x01000000)
T2338 000:859.901 - 0.020ms returns 0
T2338 000:859.924 JLINK_WriteReg(MSP, 0x20000C00)
T2338 000:859.944 - 0.020ms returns 0
T2338 000:859.968 JLINK_WriteReg(PSP, 0x20000C00)
T2338 000:859.988 - 0.020ms returns 0
T2338 000:860.012 JLINK_WriteReg(CFBP, 0x00000000)
T2338 000:860.032 - 0.020ms returns 0
T2338 000:860.057 JLINK_SetBPEx(Addr = 0x1FFFFC00, Type = 0xFFFFFFF2)
T2338 000:860.080 - 0.023ms returns 0x0000000F
T2338 000:860.104 JLINK_Go()
T2338 000:860.135   CPU_WriteMem(4 bytes @ 0xE0002000)
T2338 000:860.821   CPU_ReadMem(4 bytes @ 0xE0001000)
T2338 000:866.939 - 6.832ms
T2338 000:867.036 JLINK_IsHalted()
T2338 000:867.712 - 0.674ms returns FALSE
T2338 000:867.763 JLINK_HasError()
T2338 000:868.961 JLINK_IsHalted()
T2338 000:869.836 - 0.874ms returns FALSE
T2338 000:869.903 JLINK_HasError()
T2338 000:871.915 JLINK_IsHalted()
T2338 000:872.708 - 0.791ms returns FALSE
T2338 000:872.779 JLINK_HasError()
T2338 000:874.784 JLINK_IsHalted()
T2338 000:880.435 - 5.647ms returns TRUE
T2338 000:880.529 JLINK_ReadReg(R15 (PC))
T2338 000:880.570 - 0.040ms returns 0x1FFFFC00
T2338 000:880.609 JLINK_ClrBPEx(BPHandle = 0x0000000F)
T2338 000:880.642 - 0.032ms returns 0x00
T2338 000:880.678 JLINK_ReadReg(R0)
T2338 000:880.710 - 0.030ms returns 0x00000000
T2338 000:882.574 JLINK_HasError()
T2338 000:882.631 JLINK_WriteReg(R0, 0x00001C00)
T2338 000:882.659 - 0.027ms returns 0
T2338 000:882.684 JLINK_WriteReg(R1, 0x00000400)
T2338 000:882.704 - 0.020ms returns 0
